2-Map_P1_ContactForce.txt_2.0
Rate=50	Number =200	Date:11/25/21	Point Time:15:01:33	System Time:15:01:33	
Mode=0
IntervalGraph=100
7439542	5.83606	135	26	0	0	0	
IntervalNonGraph=1000
7439992	6.03406	132	26	0	0	0	
Index	Time	Timestamp	ForceValue	AxialAngle	LateralAngle	MetalSeverity	InAccurateSeverity	NeedZeroing	
1	-7465	7430042	5.277	-238	24	0	0	0	
2	-7415	7430092	6.19312	-227	18	0	0	0	
3	-7365	7430142	5.49677	-238	27	0	0	0	
4	-7315	7430192	5.47485	-225	24	0	0	0	
5	-7265	7430242	6.49533	-226	26	0	0	0	
6	-7215	7430292	5.80289	-230	29	0	0	0	
7	-7165	7430342	5.53836	-226	25	0	0	0	
8	-7115	7430392	6.9625	-228	19	0	0	0	
9	-7065	7430442	5.24752	-234	29	0	0	0	
10	-7015	7430492	6.7076	-227	19	0	0	0	
11	-6965	7430542	5.94093	-240	24	0	0	0	
12	-6915	7430592	4.96559	0	0	0	0	0	
13	-6865	7430642	6.92879	-231	22	0	0	0	
14	-6815	7430692	7.1761	-225	17	0	0	0	
15	-6765	7430742	6.75846	-228	20	0	0	0	
16	-6715	7430792	5.75592	-222	27	0	0	0	
17	-6665	7430842	6.56827	-232	20	0	0	0	
18	-6615	7430892	5.26299	-231	33	0	0	0	
19	-6565	7430942	7.02014	-239	17	0	0	0	
20	-6515	7430992	5.95989	-226	21	0	0	0	
21	-6465	7431042	6.76316	-230	21	0	0	0	
22	-6415	7431092	6.38005	-230	22	0	0	0	
23	-6365	7431142	6.00016	-231	24	0	0	0	
24	-6315	7431192	6.38646	-227	26	0	0	0	
25	-6265	7431242	6.42266	-226	19	0	0	0	
26	-6215	7431292	5.89976	-226	24	0	0	0	
27	-6165	7431342	5.70617	-223	27	0	0	0	
28	-6115	7431392	6.12056	-227	22	0	0	0	
29	-6065	7431442	5.9514	-228	26	0	0	0	
30	-6015	7431492	4.67266	0	0	0	0	0	
31	-5965	7431542	4.63067	0	0	0	0	0	
32	-5915	7431592	7.44387	-231	15	0	0	0	
33	-5865	7431642	4.15532	0	0	0	0	0	
34	-5815	7431692	5.80551	-234	28	0	0	0	
35	-5765	7431742	4.77625	0	0	0	0	0	
36	-5715	7431792	7.46312	-231	22	0	0	0	
37	-5665	7431842	5.77821	-217	21	0	0	0	
38	-5615	7431892	5.53865	-228	24	0	0	0	
39	-5565	7431942	5.54858	-234	31	0	0	0	
40	-5515	7431992	5.48586	-231	27	0	0	0	
41	-5465	7432042	6.62193	-233	23	0	0	0	
42	-5415	7432092	6.2678	-228	21	0	0	0	
43	-5365	7432142	5.61081	-226	23	0	0	0	
44	-5315	7432192	5.79278	-227	24	0	0	0	
45	-5265	7432242	4.8892	0	0	0	0	0	
46	-5215	7432292	4.20221	0	0	0	0	0	
47	-5165	7432342	5.91695	-224	25	0	0	0	
48	-5115	7432392	5.92571	-233	25	0	0	0	
49	-5065	7432442	4.33558	0	0	0	0	0	
50	-5015	7432492	4.47178	0	0	0	0	0	
51	-4965	7432542	6.51958	-229	26	0	0	0	
52	-4915	7432592	5.40079	-232	27	0	0	0	
53	-4865	7432642	5.309	-228	24	0	0	0	
54	-4815	7432692	5.26144	-241	25	0	0	0	
55	-4765	7432742	5.09917	-228	29	0	0	0	
56	-4715	7432792	5.16902	-231	29	0	0	0	
57	-4665	7432842	6.46524	-230	21	0	0	0	
58	-4615	7432892	5.68708	-223	22	0	0	0	
59	-4565	7432942	6.30793	-229	28	0	0	0	
60	-4515	7432992	7.03709	-224	18	0	0	0	
61	-4465	7433042	7.09155	-221	17	0	0	0	
62	-4415	7433092	6.4611	-229	22	0	0	0	
63	-4365	7433142	6.09668	-229	23	0	0	0	
64	-4315	7433192	7.11706	-239	19	0	0	0	
65	-4265	7433242	6.18713	-230	28	0	0	0	
66	-4215	7433292	5.58767	-235	27	0	0	0	
67	-4165	7433342	6.53814	-226	25	0	0	0	
68	-4115	7433392	6.76401	-233	21	0	0	0	
69	-4065	7433442	5.31138	-220	29	0	0	0	
70	-4015	7433492	6.2984	-247	24	0	0	0	
71	-3965	7433542	5.14861	-223	29	0	0	0	
72	-3915	7433592	5.52542	-222	26	0	0	0	
73	-3865	7433642	6.38342	-232	25	0	0	0	
74	-3815	7433692	5.91491	-225	25	0	0	0	
75	-3765	7433742	5.83249	-236	23	0	0	0	
76	-3715	7433792	7.5315	-221	22	0	0	0	
77	-3665	7433842	5.9506	-231	26	0	0	0	
78	-3615	7433892	5.37623	-230	23	0	0	0	
79	-3565	7433942	5.30705	-235	27	0	0	0	
80	-3515	7433992	6.34906	-228	21	0	0	0	
81	-3465	7434042	5.92097	-223	25	0	0	0	
82	-3415	7434092	5.08883	-233	29	0	0	0	
83	-3365	7434142	5.78841	-228	30	0	0	0	
84	-3315	7434192	6.32417	-227	29	0	0	0	
85	-3265	7434242	5.72447	-230	23	0	0	0	
86	-3215	7434292	5.90762	-235	18	0	0	0	
87	-3165	7434342	5.89731	-227	31	0	0	0	
88	-3115	7434392	6.58322	-222	24	0	0	0	
89	-3065	7434442	6.05068	-233	23	0	0	0	
90	-3015	7434492	7.10166	-230	23	0	0	0	
91	-2965	7434542	6.32109	-228	25	0	0	0	
92	-2915	7434592	6.45576	-232	23	0	0	0	
93	-2865	7434642	5.2488	-234	25	0	0	0	
94	-2815	7434692	6.19124	-232	23	0	0	0	
95	-2765	7434742	5.23943	-230	33	0	0	0	
96	-2715	7434792	5.58209	-226	29	0	0	0	
97	-2665	7434842	4.48393	0	0	0	0	0	
98	-2615	7434892	5.77542	-225	27	0	0	0	
99	-2565	7434942	5.96529	-234	25	0	0	0	
100	-2515	7434992	5.78424	-233	24	0	0	0	
101	-2465	7435042	6.1446	-229	21	0	0	0	
102	-2415	7435092	6.78705	-234	21	0	0	0	
103	-2365	7435142	5.91928	-231	23	0	0	0	
104	-2315	7435192	4.85213	0	0	0	0	0	
105	-2265	7435242	4.75853	0	0	0	0	0	
106	-2215	7435292	6.21281	-226	22	0	0	0	
107	-2165	7435342	5.86184	-229	23	0	0	0	
108	-2115	7435392	4.34083	0	0	0	0	0	
109	-2065	7435442	5.11512	-225	27	0	0	0	
110	-2015	7435492	4.69669	0	0	0	0	0	
111	-1965	7435542	5.00808	-234	32	0	0	0	
112	-1915	7435592	5.47228	-232	33	0	0	0	
113	-1865	7435642	5.0767	-234	26	0	0	0	
114	-1815	7435692	4.78425	0	0	0	0	0	
115	-1765	7435742	5.27664	-220	24	0	0	0	
116	-1715	7435792	5.86328	-232	25	0	0	0	
117	-1665	7435842	4.58682	0	0	0	0	0	
118	-1615	7435892	6.30694	-231	24	0	0	0	
119	-1565	7435942	5.34798	-217	30	0	0	0	
120	-1515	7435992	5.27064	-220	27	0	0	0	
121	-1465	7436042	6.4845	-238	20	0	0	0	
122	-1415	7436092	6.22909	-230	25	0	0	0	
123	-1365	7436142	5.96502	-236	26	0	0	0	
124	-1315	7436192	4.92817	0	0	0	0	0	
125	-1265	7436242	6.4414	-230	20	0	0	0	
126	-1215	7436292	6.83518	-230	20	0	0	0	
127	-1165	7436342	3.71793	0	0	0	0	0	
128	-1115	7436392	5.233	-234	25	0	0	0	
129	-1065	7436442	5.64431	-227	24	0	0	0	
130	-1015	7436492	6.02731	-229	27	0	0	0	
131	-965	7436542	6.22161	-236	17	0	0	0	
132	-915	7436592	5.6502	-227	29	0	0	0	
133	-865	7436642	6.06491	-229	21	0	0	0	
134	-815	7436692	6.12025	-231	24	0	0	0	
135	-765	7436742	4.62756	0	0	0	0	0	
136	-715	7436792	5.90963	-233	22	0	0	0	
137	-665	7436842	6.14126	-234	23	0	0	0	
138	-615	7436892	5.45806	-223	27	0	0	0	
139	-565	7436942	5.93309	-232	27	0	0	0	
140	-515	7436992	5.31022	-220	30	0	0	0	
141	-465	7437042	6.21355	-236	21	0	0	0	
142	-415	7437092	5.65675	-226	31	0	0	0	
143	-365	7437142	4.26785	0	0	0	0	0	
144	-315	7437192	5.11738	-216	22	0	0	0	
145	-265	7437242	6.03025	-221	26	0	0	0	
146	-215	7437292	6.67796	-227	23	0	0	0	
147	-165	7437342	5.92212	-229	28	0	0	0	
148	-115	7437392	5.42367	-226	25	0	0	0	
149	-65	7437442	6.10989	-230	23	0	0	0	
150	-15	7437492	5.56529	-226	27	0	0	0	
151	35	7437542	6.07141	-227	18	0	0	0	
152	85	7437592	7.0353	-224	25	0	0	0	
153	135	7437642	5.31313	-226	29	0	0	0	
154	185	7437692	4.50932	0	0	0	0	0	
155	235	7437742	4.54804	0	0	0	0	0	
156	285	7437792	5.47858	-234	31	0	0	0	
157	335	7437842	5.6415	-224	24	0	0	0	
158	385	7437892	5.01442	-219	27	0	0	0	
159	435	7437942	6.07369	-232	33	0	0	0	
160	485	7437992	6.36218	-230	26	0	0	0	
161	535	7438042	6.0954	-228	25	0	0	0	
162	585	7438092	6.13079	-226	25	0	0	0	
163	635	7438142	5.79439	-234	18	0	0	0	
164	685	7438192	5.54533	-230	27	0	0	0	
165	735	7438242	6.55789	-227	21	0	0	0	
166	785	7438292	7.28874	-224	21	0	0	0	
167	835	7438342	6.32648	-216	25	0	0	0	
168	885	7438392	4.37696	0	0	0	0	0	
169	935	7438442	6.61896	-238	18	0	0	0	
170	985	7438492	5.63623	-231	30	0	0	0	
171	1035	7438542	5.08673	-224	32	0	0	0	
172	1085	7438592	5.77046	-230	28	0	0	0	
173	1135	7438642	6.28511	-232	23	0	0	0	
174	1185	7438692	4.47252	0	0	0	0	0	
175	1235	7438742	6.26376	-223	25	0	0	0	
176	1285	7438792	5.44837	-233	27	0	0	0	
177	1335	7438842	6.57462	-242	22	0	0	0	
178	1385	7438892	6.3905	-226	21	0	0	0	
179	1435	7438942	6.51018	-229	23	0	0	0	
180	1485	7438992	6.71454	-231	32	0	0	0	
181	1535	7439042	5.57786	-226	25	0	0	0	
182	1585	7439092	5.82095	-240	30	0	0	0	
183	1635	7439142	7.18498	-234	20	0	0	0	
184	1685	7439192	5.98515	-222	23	0	0	0	
185	1735	7439242	5.5354	-223	31	0	0	0	
186	1785	7439292	6.66838	-227	23	0	0	0	
187	1835	7439342	7.22603	-232	22	0	0	0	
188	1885	7439392	6.13946	-222	26	0	0	0	
189	1935	7439442	6.77054	-224	21	0	0	0	
190	1985	7439492	5.92637	-217	21	0	0	0	
191	2035	7439542	5.80136	-229	31	0	0	0	
192	2085	7439592	6.71983	-222	25	0	0	0	
193	2135	7439642	6.09859	-230	26	0	0	0	
194	2185	7439692	6.78716	-224	22	0	0	0	
195	2235	7439742	6.3547	-235	24	0	0	0	
196	2285	7439792	6.44603	-225	20	0	0	0	
197	2335	7439842	5.13487	-233	35	0	0	0	
198	2385	7439892	4.68015	0	0	0	0	0	
199	2435	7439942	6.08322	-229	30	0	0	0	
200	2485	7439992	4.40358	0	0	0	0	0	
